Freq.	V(out)
1.00000000000000e-002	-3.52448195154158e-002,6.63402839673679e-002
1.00043885104840e-002	-3.52755308316317e-002,6.63724629364296e-002
1.00087789468704e-002	-3.53062687070696e-002,6.64046600374608e-002
1.00131713100044e-002	-3.53370331643421e-002,6.64368752836404e-002
1.00175656007316e-002	-3.53678242260854e-002,6.64691086881605e-002
1.00219618198978e-002	-3.53986419149485e-002,6.65013602642252e-002
1.00263599683495e-002	-3.54294862536040e-002,6.65336300250516e-002
1.00307600469332e-002	-3.54603572647400e-002,6.65659179838689e-002
1.00351620564960e-002	-3.54912549710648e-002,6.65982241539194e-002
1.00395659978854e-002	-3.55221793953051e-002,6.66305485484577e-002
1.00439718719490e-002	-3.55531305602063e-002,6.66628911807509e-002
1.00483796795351e-002	-3.55841084885326e-002,6.66952520640792e-002
1.00527894214921e-002	-3.56151132030667e-002,6.67276312117349e-002
1.00572010986691e-002	-3.56461447266100e-002,6.67600286370233e-002
1.00616147119151e-002	-3.56772030819828e-002,6.67924443532623e-002
1.00660302620800e-002	-3.57082882920249e-002,6.68248783737824e-002
1.00704477500138e-002	-3.57394003795937e-002,6.68573307119269e-002
1.00748671765667e-002	-3.57705393675664e-002,6.68898013810518e-002
1.00792885425896e-002	-3.58017052788379e-002,6.69222903945257e-002
1.00837118489336e-002	-3.58328981363244e-002,6.69547977657304e-002
1.00881370964502e-002	-3.58641179629568e-002,6.69873235080596e-002
1.00925642859914e-002	-3.58953647816895e-002,6.70198676349208e-002
1.00969934184093e-002	-3.59266386154921e-002,6.70524301597334e-002
1.01014244945566e-002	-3.59579394873553e-002,6.70850110959301e-002
1.01058575152864e-002	-3.59892674202881e-002,6.71176104569564e-002
1.01102924814519e-002	-3.60206224373182e-002,6.71502282562704e-002
1.01147293939070e-002	-3.60520045614923e-002,6.71828645073432e-002
1.01191682535058e-002	-3.60834138158770e-002,6.72155192236588e-002
1.01236090611027e-002	-3.61148502235550e-002,6.72481924187138e-002
1.01280518175528e-002	-3.61463138076325e-002,6.72808841060182e-002
1.01324965237111e-002	-3.61778045912311e-002,6.73135942990944e-002
1.01369431804334e-002	-3.62093225974921e-002,6.73463230114779e-002
1.01413917885757e-002	-3.62408678495771e-002,6.73790702567172e-002
1.01458423489943e-002	-3.62724403706665e-002,6.74118360483739e-002
1.01502948625461e-002	-3.63040401839580e-002,6.74446204000220e-002
1.01547493300880e-002	-3.63356673126694e-002,6.74774233252490e-002
1.01592057524777e-002	-3.63673217800394e-002,6.75102448376552e-002
1.01636641305731e-002	-3.63990036093228e-002,6.75430849508540e-002
1.01681244652324e-002	-3.64307128237950e-002,6.75759436784716e-002
1.01725867573142e-002	-3.64624494467517e-002,6.76088210341476e-002
1.01770510076775e-002	-3.64942135015053e-002,6.76417170315342e-002
1.01815172171818e-002	-3.65260050113893e-002,6.76746316842971e-002
1.01859853866869e-002	-3.65578239997548e-002,6.77075650061147e-002
1.01904555170528e-002	-3.65896704899739e-002,6.77405170106789e-002
1.01949276091401e-002	-3.66215445054365e-002,6.77734877116942e-002
1.01994016638097e-002	-3.66534460695531e-002,6.78064771228788e-002
1.02038776819229e-002	-3.66853752057509e-002,6.78394852579635e-002
1.02083556643413e-002	-3.67173319374786e-002,6.78725121306925e-002
1.02128356119270e-002	-3.67493162882053e-002,6.79055577548235e-002
1.02173175255424e-002	-3.67813282814147e-002,6.79386221441266e-002
1.02218014060503e-002	-3.68133679406142e-002,6.79717053123857e-002
1.02262872543139e-002	-3.68454352893292e-002,6.80048072733978e-002
1.02307750711966e-002	-3.68775303511043e-002,6.80379280409732e-002
1.02352648575625e-002	-3.69096531495029e-002,6.80710676289350e-002
1.02397566142759e-002	-3.69418037081094e-002,6.81042260511203e-002
1.02442503422014e-002	-3.69739820505250e-002,6.81374033213787e-002
1.02487460422041e-002	-3.70061882003729e-002,6.81705994535737e-002
1.02532437151495e-002	-3.70384221812931e-002,6.82038144615816e-002
1.02577433619034e-002	-3.70706840169485e-002,6.82370483592925e-002
1.02622449833319e-002	-3.71029737310181e-002,6.82703011606094e-002
1.02667485803018e-002	-3.71352913472006e-002,6.83035728794488e-002
1.02712541536799e-002	-3.71676368892174e-002,6.83368635297409e-002
1.02757617043336e-002	-3.72000103808057e-002,6.83701731254287e-002
1.02802712331306e-002	-3.72324118457248e-002,6.84035016804691e-002
1.02847827409391e-002	-3.72648413077521e-002,6.84368492088322e-002
1.02892962286275e-002	-3.72972987906837e-002,6.84702157245012e-002
1.02938116970647e-002	-3.73297843183362e-002,6.85036012414732e-002
1.02983291471199e-002	-3.73622979145479e-002,6.85370057737587e-002
1.03028485796629e-002	-3.73948396031722e-002,6.85704293353813e-002
1.03073699955635e-002	-3.74274094080868e-002,6.86038719403788e-002
1.03118933956923e-002	-3.74600073531843e-002,6.86373336028016e-002
1.03164187809200e-002	-3.74926334623815e-002,6.86708143367144e-002
1.03209461521177e-002	-3.75252877596108e-002,6.87043141561948e-002
1.03254755101570e-002	-3.75579702688277e-002,6.87378330753345e-002
1.03300068559098e-002	-3.75906810140045e-002,6.87713711082383e-002
1.03345401902485e-002	-3.76234200191342e-002,6.88049282690247e-002
1.03390755140457e-002	-3.76561873082305e-002,6.88385045718262e-002
1.03436128281745e-002	-3.76889829053265e-002,6.88721000307884e-002
1.03481521335083e-002	-3.77218068344735e-002,6.89057146600708e-002
1.03526934309211e-002	-3.77546591197425e-002,6.89393484738460e-002
1.03572367212870e-002	-3.77875397852277e-002,6.89730014863012e-002
1.03617820054806e-002	-3.78204488550384e-002,6.90066737116365e-002
1.03663292843770e-002	-3.78533863533072e-002,6.90403651640660e-002
1.03708785588515e-002	-3.78863523041844e-002,6.90740758578174e-002
1.03754298297798e-002	-3.79193467318416e-002,6.91078058071322e-002
1.03799830980382e-002	-3.79523696604682e-002,6.91415550262654e-002
1.03845383645031e-002	-3.79854211142760e-002,6.91753235294862e-002
1.03890956300515e-002	-3.80185011174942e-002,6.92091113310770e-002
1.03936548955607e-002	-3.80516096943747e-002,6.92429184453346e-002
1.03982161619083e-002	-3.80847468691855e-002,6.92767448865688e-002
1.04027794299724e-002	-3.81179126662183e-002,6.93105906691042e-002
1.04073447006315e-002	-3.81511071097823e-002,6.93444558072783e-002
1.04119119747644e-002	-3.81843302242062e-002,6.93783403154428e-002
1.04164812532503e-002	-3.82175820338425e-002,6.94122442079636e-002
1.04210525369689e-002	-3.82508625630577e-002,6.94461674992198e-002
1.04256258268002e-002	-3.82841718362433e-002,6.94801102036049e-002
1.04302011236245e-002	-3.83175098778089e-002,6.95140723355261e-002
1.04347784283225e-002	-3.83508767121839e-002,6.95480539094047e-002
1.04393577417756e-002	-3.83842723638177e-002,6.95820549396756e-002
1.04439390648652e-002	-3.84176968571801e-002,6.96160754407879e-002
1.04485223984732e-002	-3.84511502167600e-002,6.96501154272045e-002
1.04531077434820e-002	-3.84846324670696e-002,6.96841749134027e-002
1.04576951007742e-002	-3.85181436326362e-002,6.97182539138732e-002
1.04622844712330e-002	-3.85516837380114e-002,6.97523524431211e-002
1.04668758557418e-002	-3.85852528077630e-002,6.97864705156651e-002
1.04714692551846e-002	-3.86188508664843e-002,6.98206081460389e-002
1.04760646704455e-002	-3.86524779387820e-002,6.98547653487889e-002
1.04806621024092e-002	-3.86861340492896e-002,6.98889421384769e-002
1.04852615519607e-002	-3.87198192226565e-002,6.99231385296780e-002
1.04898630199855e-002	-3.87535334835540e-002,6.99573545369815e-002
1.04944665073694e-002	-3.87872768566719e-002,6.99915901749910e-002
1.04990720149985e-002	-3.88210493667220e-002,7.00258454583241e-002
1.05036795437595e-002	-3.88548510384354e-002,7.00601204016126e-002
1.05082890945393e-002	-3.88886818965654e-002,7.00944150195029e-002
1.05129006682253e-002	-3.89225419658814e-002,7.01287293266545e-002
1.05175142657052e-002	-3.89564312711773e-002,7.01630633377424e-002
1.05221298878673e-002	-3.89903498372648e-002,7.01974170674548e-002
1.05267475355999e-002	-3.90242976889760e-002,7.02317905304946e-002
1.05313672097921e-002	-3.90582748511654e-002,7.02661837415791e-002
1.05359889113332e-002	-3.90922813487051e-002,7.03005967154395e-002
1.05406126411129e-002	-3.91263172064906e-002,7.03350294668216e-002
1.05452384000212e-002	-3.91603824494342e-002,7.03694820104852e-002
1.05498661889486e-002	-3.91944771024708e-002,7.04039543612045e-002
1.05544960087861e-002	-3.92286011905554e-002,7.04384465337683e-002
1.05591278604248e-002	-3.92627547386637e-002,7.04729585429795e-002
1.05637617447565e-002	-3.92969377717905e-002,7.05074904036553e-002
1.05683976626733e-002	-3.93311503149525e-002,7.05420421306275e-002
1.05730356150674e-002	-3.93653923931869e-002,7.05766137387423e-002
1.05776756028318e-002	-3.93996640315496e-002,7.06112052428600e-002
1.05823176268597e-002	-3.94339652551184e-002,7.06458166578557e-002
1.05869616880447e-002	-3.94682960889919e-002,7.06804479986188e-002
1.05916077872809e-002	-3.95026565582878e-002,7.07150992800530e-002
1.05962559254625e-002	-3.95370466881456e-002,7.07497705170767e-002
1.06009061034845e-002	-3.95714665037256e-002,7.07844617246230e-002
1.06055583222420e-002	-3.96059160302071e-002,7.08191729176389e-002
1.06102125826305e-002	-3.96403952927910e-002,7.08539041110864e-002
1.06148688855461e-002	-3.96749043166988e-002,7.08886553199420e-002
1.06195272318852e-002	-3.97094431271721e-002,7.09234265591965e-002
1.06241876225444e-002	-3.97440117494731e-002,7.09582178438556e-002
1.06288500584209e-002	-3.97786102088866e-002,7.09930291889396e-002
1.06335145404123e-002	-3.98132385307151e-002,7.10278606094830e-002
1.06381810694165e-002	-3.98478967402839e-002,7.10627121205355e-002
1.06428496463318e-002	-3.98825848629379e-002,7.10975837371610e-002
1.06475202720571e-002	-3.99173029240422e-002,7.11324754744381e-002
1.06521929474913e-002	-3.99520509489860e-002,7.11673873474606e-002
1.06568676735340e-002	-3.99868289631730e-002,7.12023193713360e-002
1.06615444510852e-002	-4.00216369920334e-002,7.12372715611875e-002
1.06662232810451e-002	-4.00564750610164e-002,7.12722439321527e-002
1.06709041643144e-002	-4.00913431955912e-002,7.13072364993836e-002
1.06755871017943e-002	-4.01262414212476e-002,7.13422492780475e-002
1.06802720943861e-002	-4.01611697634980e-002,7.13772822833261e-002
1.06849591429919e-002	-4.01961282478733e-002,7.14123355304159e-002
1.06896482485139e-002	-4.02311168999271e-002,7.14474090345285e-002
1.06943394118548e-002	-4.02661357452334e-002,7.14825028108902e-002
1.06990326339176e-002	-4.03011848093856e-002,7.15176168747420e-002
1.07037279156058e-002	-4.03362641180010e-002,7.15527512413399e-002
1.07084252578233e-002	-4.03713736967153e-002,7.15879059259549e-002
1.07131246614744e-002	-4.04065135711847e-002,7.16230809438725e-002
1.07178261274637e-002	-4.04416837670881e-002,7.16582763103934e-002
1.07225296566963e-002	-4.04768843101257e-002,7.16934920408333e-002
1.07272352500776e-002	-4.05121152260173e-002,7.17287281505229e-002
1.07319429085135e-002	-4.05473765405035e-002,7.17639846548075e-002
1.07366526329102e-002	-4.05826682793468e-002,7.17992615690476e-002
1.07413644241745e-002	-4.06179904683301e-002,7.18345589086188e-002
1.07460782832132e-002	-4.06533431332579e-002,7.18698766889115e-002
1.07507942109340e-002	-4.06887262999555e-002,7.19052149253314e-002
1.07555122082446e-002	-4.07241399942688e-002,7.19405736332989e-002
1.07602322760532e-002	-4.07595842420647e-002,7.19759528282496e-002
1.07649544152685e-002	-4.07950590692340e-002,7.20113525256348e-002
1.07696786267996e-002	-4.08305645016825e-002,7.20467727409195e-002
1.07744049115559e-002	-4.08661005653449e-002,7.20822134895855e-002
1.07791332704472e-002	-4.09016672861709e-002,7.21176747871285e-002
1.07838637043837e-002	-4.09372646901328e-002,7.21531566490597e-002
1.07885962142762e-002	-4.09728928032262e-002,7.21886590909057e-002
1.07933308010356e-002	-4.10085516514664e-002,7.22241821282081e-002
1.07980674655733e-002	-4.10442412608887e-002,7.22597257765237e-002
1.08028062088012e-002	-4.10799616575513e-002,7.22952900514244e-002
1.08075470316316e-002	-4.11157128675342e-002,7.23308749684978e-002
1.08122899349770e-002	-4.11514949169369e-002,7.23664805433463e-002
1.08170349197506e-002	-4.11873078318805e-002,7.24021067915876e-002
1.08217819868656e-002	-4.12231516385081e-002,7.24377537288549e-002
1.08265311372361e-002	-4.12590263629833e-002,7.24734213707967e-002
1.08312823717762e-002	-4.12949320314934e-002,7.25091097330769e-002
1.08360356914005e-002	-4.13308686702415e-002,7.25448188313740e-002
1.08407910970242e-002	-4.13668363054593e-002,7.25805486813831e-002
1.08455485895625e-002	-4.14028349633944e-002,7.26162992988139e-002
1.08503081699315e-002	-4.14388646703184e-002,7.26520706993915e-002
1.08550698390473e-002	-4.14749254525217e-002,7.26878628988565e-002
1.08598335978266e-002	-4.15110173363200e-002,7.27236759129651e-002
1.08645994471864e-002	-4.15471403480468e-002,7.27595097574888e-002
1.08693673880443e-002	-4.15832945140589e-002,7.27953644482146e-002
1.08741374213179e-002	-4.16194798607355e-002,7.28312400009452e-002
1.08789095479257e-002	-4.16556964144732e-002,7.28671364314982e-002
1.08836837687862e-002	-4.16919442016956e-002,7.29030537557074e-002
1.08884600848186e-002	-4.17282232488429e-002,7.29389919894216e-002
1.08932384969422e-002	-4.17645335823806e-002,7.29749511485057e-002
1.08980190060770e-002	-4.18008752287932e-002,7.30109312488396e-002
1.09028016131433e-002	-4.18372482145882e-002,7.30469323063194e-002
1.09075863190617e-002	-4.18736525662931e-002,7.30829543368561e-002
1.09123731247533e-002	-4.19100883104586e-002,7.31189973563769e-002
1.09171620311396e-002	-4.19465554736565e-002,7.31550613808245e-002
1.09219530391425e-002	-4.19830540824803e-002,7.31911464261571e-002
1.09267461496843e-002	-4.20195841635448e-002,7.32272525083489e-002
1.09315413636876e-002	-4.20561457434859e-002,7.32633796433893e-002
1.09363386820757e-002	-4.20927388489623e-002,7.32995278472838e-002
1.09411381057719e-002	-4.21293635066536e-002,7.33356971360536e-002
1.09459396357003e-002	-4.21660197432616e-002,7.33718875257355e-002
1.09507432727851e-002	-4.22027075855096e-002,7.34080990323823e-002
1.09555490179511e-002	-4.22394270601435e-002,7.34443316720624e-002
1.09603568721234e-002	-4.22761781939280e-002,7.34805854608599e-002
1.09651668362276e-002	-4.23129610136541e-002,7.35168604148752e-002
1.09699789111895e-002	-4.23497755461310e-002,7.35531565502241e-002
1.09747930979356e-002	-4.23866218181896e-002,7.35894738830381e-002
1.09796093973925e-002	-4.24234998566845e-002,7.36258124294650e-002
1.09844278104876e-002	-4.24604096884926e-002,7.36621722056686e-002
1.09892483381482e-002	-4.24973513405113e-002,7.36985532278283e-002
1.09940709813025e-002	-4.25343248396574e-002,7.37349555121391e-002
1.09988957408788e-002	-4.25713302128769e-002,7.37713790748131e-002
1.10037226178059e-002	-4.26083674871282e-002,7.38078239320769e-002
1.10085516130130e-002	-4.26454366893985e-002,7.38442901001740e-002
1.10133827274297e-002	-4.26825378466943e-002,7.38807775953639e-002
1.10182159619861e-002	-4.27196709860454e-002,7.39172864339218e-002
1.10230513176125e-002	-4.27568361345024e-002,7.39538166321393e-002
1.10278887952397e-002	-4.27940333191374e-002,7.39903682063235e-002
1.10327283957991e-002	-4.28312625670467e-002,7.40269411727982e-002
1.10375701202223e-002	-4.28685239053457e-002,7.40635355479029e-002
1.10424139694413e-002	-4.29058173611725e-002,7.41001513479932e-002
1.10472599443886e-002	-4.29431429616899e-002,7.41367885894411e-002
1.10521080459972e-002	-4.29805007340802e-002,7.41734472886347e-002
1.10569582752001e-002	-4.30178907055481e-002,7.42101274619781e-002
1.10618106329313e-002	-4.30553129033221e-002,7.42468291258918e-002
1.10666651201247e-002	-4.30927673546486e-002,7.42835522968121e-002
1.10715217377150e-002	-4.31302540868007e-002,7.43202969911920e-002
1.10763804866369e-002	-4.31677731270718e-002,7.43570632255005e-002
1.10812413678259e-002	-4.32053245027767e-002,7.43938510162230e-002
1.10861043822177e-002	-4.32429082412530e-002,7.44306603798608e-002
1.10909695307485e-002	-4.32805243698625e-002,7.44674913329324e-002
1.10958368143548e-002	-4.33181729159847e-002,7.45043438919714e-002
1.11007062339736e-002	-4.33558539070264e-002,7.45412180735288e-002
1.11055777905424e-002	-4.33935673704117e-002,7.45781138941712e-002
1.11104514849988e-002	-4.34313133335917e-002,7.46150313704821e-002
1.11153273182812e-002	-4.34690918240355e-002,7.46519705190610e-002
1.11202052913281e-002	-4.35069028692381e-002,7.46889313565242e-002
1.11250854050786e-002	-4.35447464967128e-002,7.47259138995039e-002
1.11299676604721e-002	-4.35826227340002e-002,7.47629181646495e-002
1.11348520584485e-002	-4.36205316086578e-002,7.47999441686259e-002
1.11397385999481e-002	-4.36584731482713e-002,7.48369919281157e-002
1.11446272859116e-002	-4.36964473804430e-002,7.48740614598168e-002
1.11495181172800e-002	-4.37344543328022e-002,7.49111527804444e-002
1.11544110949949e-002	-4.37724940329971e-002,7.49482659067299e-002
1.11593062199982e-002	-4.38105665086998e-002,7.49854008554214e-002
1.11642034932322e-002	-4.38486717876065e-002,7.50225576432837e-002
1.11691029156397e-002	-4.38868098974330e-002,7.50597362870978e-002
1.11740044881639e-002	-4.39249808659177e-002,7.50969368036615e-002
1.11789082117484e-002	-4.39631847208247e-002,7.51341592097897e-002
1.11838140873370e-002	-4.40014214899369e-002,7.51714035223133e-002
1.11887221158743e-002	-4.40396912010623e-002,7.52086697580802e-002
1.11936322983051e-002	-4.40779938820298e-002,7.52459579339550e-002
1.11985446355746e-002	-4.41163295606909e-002,7.52832680668188e-002
1.12034591286284e-002	-4.41546982649208e-002,7.53206001735696e-002
1.12083757784127e-002	-4.41931000226155e-002,7.53579542711222e-002
1.12132945858739e-002	-4.42315348616966e-002,7.53953303764082e-002
1.12182155519589e-002	-4.42700028101046e-002,7.54327285063757e-002
1.12231386776150e-002	-4.43085038958064e-002,7.54701486779901e-002
1.12280639637900e-002	-4.43470381467880e-002,7.55075909082331e-002
1.12329914114320e-002	-4.43856055910596e-002,7.55450552141035e-002
1.12379210214895e-002	-4.44242062566549e-002,7.55825416126172e-002
1.12428527949116e-002	-4.44628401716284e-002,7.56200501208064e-002
1.12477867326476e-002	-4.45015073640604e-002,7.56575807557209e-002
1.12527228356474e-002	-4.45402078620497e-002,7.56951335344267e-002
1.12576611048611e-002	-4.45789416937203e-002,7.57327084740073e-002
1.12626015412395e-002	-4.46177088872216e-002,7.57703055915634e-002
1.12675441457336e-002	-4.46565094707191e-002,7.58079249042117e-002
1.12724889192948e-002	-4.46953434724058e-002,7.58455664290865e-002
1.12774358628751e-002	-4.47342109204990e-002,7.58832301833397e-002
1.12823849774267e-002	-4.47731118432342e-002,7.59209161841391e-002
1.12873362639025e-002	-4.48120462688718e-002,7.59586244486701e-002
1.12922897232555e-002	-4.48510142256969e-002,7.59963549941356e-002
1.12972453564394e-002	-4.48900157420145e-002,7.60341078377550e-002
1.13022031644080e-002	-4.49290508461534e-002,7.60718829967647e-002
1.13071631481159e-002	-4.49681195664653e-002,7.61096804884188e-002
1.13121253085179e-002	-4.50072219313283e-002,7.61475003299887e-002
1.13170896465691e-002	-4.50463579691367e-002,7.61853425387619e-002
1.13220561632253e-002	-4.50855277083128e-002,7.62232071320442e-002
1.13270248594426e-002	-4.51247311773007e-002,7.62610941271581e-002
1.13319957361774e-002	-4.51639684045669e-002,7.62990035414436e-002
1.13369687943866e-002	-4.52032394186023e-002,7.63369353922578e-002
1.13419440350277e-002	-4.52425442479178e-002,7.63748896969748e-002
1.13469214590583e-002	-4.52818829210507e-002,7.64128664729866e-002
1.13519010674367e-002	-4.53212554665587e-002,7.64508657377019e-002
1.13568828611215e-002	-4.53606619130264e-002,7.64888875085475e-002
1.13618668410716e-002	-4.54001022890576e-002,7.65269318029668e-002
1.13668530082465e-002	-4.54395766232787e-002,7.65649986384208e-002
1.13718413636062e-002	-4.54790849443437e-002,7.66030880323882e-002
1.13768319081108e-002	-4.55186272809257e-002,7.66412000023648e-002
1.13818246427211e-002	-4.55582036617229e-002,7.66793345658638e-002
1.13868195683983e-002	-4.55978141154559e-002,7.67174917404163e-002
1.13918166861038e-002	-4.56374586708686e-002,7.67556715435703e-002
